<Qucs Dataset 0.0.17>
<indep frequency 200>
  +7.00000000000e+05
  +7.21127381622e+05
  +7.42892429321e+05
  +7.65314389118e+05
  +7.88413087917e+05
  +8.12208951037e+05
  +8.36723020273e+05
  +8.61976972503e+05
  +8.87993138856e+05
  +9.14794524459e+05
  +9.42404828778e+05
  +9.70848466578e+05
  +1.00015058951e+06
  +1.03033710834e+06
  +1.06143471589e+06
  +1.09347091062e+06
  +1.12647402094e+06
  +1.16047323026e+06
  +1.19549860283e+06
  +1.23158111027e+06
  +1.26875265901e+06
  +1.30704611845e+06
  +1.34649535008e+06
  +1.38713523738e+06
  +1.42900171670e+06
  +1.47213180900e+06
  +1.51656365260e+06
  +1.56233653695e+06
  +1.60949093729e+06
  +1.65806855050e+06
  +1.70811233196e+06
  +1.75966653352e+06
  +1.81277674263e+06
  +1.86748992269e+06
  +1.92385445450e+06
  +1.98192017914e+06
  +2.04173844195e+06
  +2.10336213800e+06
  +2.16684575882e+06
  +2.23224544063e+06
  +2.29961901391e+06
  +2.36902605461e+06
  +2.44052793679e+06
  +2.51418788690e+06
  +2.59007103970e+06
  +2.66824449582e+06
  +2.74877738113e+06
  +2.83174090788e+06
  +2.91720843762e+06
  +3.00525554609e+06
  +3.09596009008e+06
  +3.18940227624e+06
  +3.28566473200e+06
  +3.38483257868e+06
  +3.48699350670e+06
  +3.59223785317e+06
  +3.70065868174e+06
  +3.81235186491e+06
  +3.92741616881e+06
  +4.04595334050e+06
  +4.16806819800e+06
  +4.29386872292e+06
  +4.42346615598e+06
  +4.55697509536e+06
  +4.69451359804e+06
  +4.83620328421e+06
  +4.98216944476e+06
  +5.13254115213e+06
  +5.28745137443e+06
  +5.44703709300e+06
  +5.61143942353e+06
  +5.78080374088e+06
  +5.95527980761e+06
  +6.13502190641e+06
  +6.32018897652e+06
  +6.51094475427e+06
  +6.70745791790e+06
  +6.90990223668e+06
  +7.11845672457e+06
  +7.33330579853e+06
  +7.55463944161e+06
  +7.78265337089e+06
  +8.01754921060e+06
  +8.25953467037e+06
  +8.50882372894e+06
  +8.76563682333e+06
  +9.03020104379e+06
  +9.30275033461e+06
  +9.58352570097e+06
  +9.87277542206e+06
  +1.01707552706e+07
  +1.04777287392e+07
  +1.07939672729e+07
  +1.11197505097e+07
  +1.14553665277e+07
  +1.18011120995e+07
  +1.21572929550e+07
  +1.25242240518e+07
  +1.29022298533e+07
  +1.32916446160e+07
  +1.36928126848e+07
  +1.41060887978e+07
  +1.45318383995e+07
  +1.49704379646e+07
  +1.54222753302e+07
  +1.58877500393e+07
  +1.63672736938e+07
  +1.68612703187e+07
  +1.73701767368e+07
  +1.78944429550e+07
  +1.84345325625e+07
  +1.89909231403e+07
  +1.95641066839e+07
  +2.01545900382e+07
  +2.07628953456e+07
  +2.13895605077e+07
  +2.20351396614e+07
  +2.27002036681e+07
  +2.33853406193e+07
  +2.40911563559e+07
  +2.48182750045e+07
  +2.55673395291e+07
  +2.63390122995e+07
  +2.71339756772e+07
  +2.79529326187e+07
  +2.87966072971e+07
  +2.96657457425e+07
  +3.05611165016e+07
  +3.14835113175e+07
  +3.24337458295e+07
  +3.34126602945e+07
  +3.44211203303e+07
  +3.54600176804e+07
  +3.65302710030e+07
  +3.76328266833e+07
  +3.87686596703e+07
  +3.99387743386e+07
  +4.11442053771e+07
  +4.23860187035e+07
  +4.36653124072e+07
  +4.49832177199e+07
  +4.63409000160e+07
  +4.77395598437e+07
  +4.91804339855e+07
  +5.06647965528e+07
  +5.21939601122e+07
  +5.37692768459e+07
  +5.53921397480e+07
  +5.70639838556e+07
  +5.87862875181e+07
  +6.05605737045e+07
  +6.23884113501e+07
  +6.42714167434e+07
  +6.62112549562e+07
  +6.82096413149e+07
  +7.02683429182e+07
  +7.23891801993e+07
  +7.45740285355e+07
  +7.68248199068e+07
  +7.91435446043e+07
  +8.15322529896e+07
  +8.39930573087e+07
  +8.65281335592e+07
  +8.91397234145e+07
  +9.18301362062e+07
  +9.46017509662e+07
  +9.74570185302e+07
  +1.00398463705e+08
  +1.03428687500e+08
  +1.06550369431e+08
  +1.09766269884e+08
  +1.13079232559e+08
  +1.16492186988e+08
  +1.20008151117e+08
  +1.23630233983e+08
  +1.27361638459e+08
  +1.31205664087e+08
  +1.35165709996e+08
  +1.39245277906e+08
  +1.43447975228e+08
  +1.47777518250e+08
  +1.52237735426e+08
  +1.56832570760e+08
  +1.61566087293e+08
  +1.66442470698e+08
  +1.71466032979e+08
  +1.76641216284e+08
  +1.81972596836e+08
  +1.87464888977e+08
  +1.93122949334e+08
  +1.98951781120e+08
  +2.04956538554e+08
  +2.11142531420e+08
  +2.17515229760e+08
  +2.24080268714e+08
  +2.30843453501e+08
  +2.37810764554e+08
  +2.44988362806e+08
  +2.52382595140e+08
  +2.60000000000e+08
</indep>
<dep dBS11 frequency>
  -7.50354318221e-07
  -8.97913789624e-07
  -1.07456502363e-06
  -1.28606346065e-06
  -1.53930859061e-06
  -1.84257280769e-06
  -2.20577646008e-06
  -2.64081853106e-06
  -3.16197424134e-06
  -3.78637349575e-06
  -4.53457655567e-06
  -5.43126728889e-06
  -6.50608808973e-06
  -7.79464608428e-06
  -9.33972625606e-06
  -1.11927548133e-05
  -1.34155654865e-05
  -1.60825324205e-05
  -1.92831477630e-05
  -2.31251382393e-05
  -2.77382363325e-05
  -3.32787467531e-05
  -3.99350801077e-05
  -4.79344642128e-05
  -5.75510906063e-05
  -6.91160120971e-05
  -8.30291794335e-05
  -9.97740941185e-05
  -1.19935665174e-04
  -1.44221995153e-04
  -1.73490991602e-04
  -2.08782914031e-04
  -2.51360233090e-04
  -3.02756513448e-04
  -3.64836452046e-04
  -4.39869732519e-04
  -5.30622024756e-04
  -6.40467303877e-04
  -7.73526736298e-04
  -9.34840746071e-04
  -1.13058261823e-03
  -1.36832422788e-03
  -1.65736735012e-03
  -2.00915769908e-03
  -2.43780361757e-03
  -2.96072752897e-03
  -3.59948631775e-03
  -4.38080732144e-03
  -5.33790039451e-03
  -6.51212461679e-03
  -7.95511210762e-03
  -9.73148301852e-03
  -1.19223277344e-02
  -1.46296881592e-02
  -1.79823444711e-02
  -2.21433133284e-02
  -2.73195967786e-02
  -3.37748994534e-02
  -4.18462699100e-02
  -5.19659391848e-02
  -6.46900491053e-02
  -8.07365114702e-02
  -1.01034943736e-01
  -1.26792505684e-01
  -1.59580505595e-01
  -2.01447779645e-01
  -2.55067865384e-01
  -3.23927424504e-01
  -4.12562311674e-01
  -5.26843529840e-01
  -6.74305536038e-01
  -8.64490640952e-01
  -1.10925260065e+00
  -1.42292063190e+00
  -1.82218280937e+00
  -2.32553369980e+00
  -2.95219132312e+00
  -3.72056247345e+00
  -4.64660100921e+00
  -5.74263293727e+00
  -7.01723202994e+00
  -8.47644884321e+00
  -1.01262901827e+01
  -1.19761204305e+01
  -1.40428211511e+01
  -1.63561473133e+01
  -1.89668860400e+01
  -2.19619803715e+01
  -2.54981299373e+01
  -2.98930643547e+01
  -3.59630787000e+01
  -4.75438404662e+01
  -4.85422619848e+01
  -4.14540695381e+01
  -3.95755381290e+01
  -3.96722843085e+01
  -4.13022692800e+01
  -4.49536443450e+01
  -5.40023647874e+01
  -5.44158619885e+01
  -4.50798607168e+01
  -4.13621210991e+01
  -3.96933814439e+01
  -3.95586027476e+01
  -4.13739706207e+01
  -4.82030869321e+01
  -4.80397135726e+01
  -3.61454246329e+01
  -3.00140903167e+01
  -2.55918830416e+01
  -2.20397924518e+01
  -1.90339199875e+01
  -1.64151526244e+01
  -1.40953799297e+01
  -1.20231649121e+01
  -1.01683594069e+01
  -8.51384203505e+00
  -7.05011977900e+00
  -5.77114807458e+00
  -4.67091088275e+00
  -3.74091501215e+00
  -2.96892833302e+00
  -2.33907357563e+00
  -1.83298425971e+00
  -1.43144252407e+00
  -1.11592155583e+00
  -8.69681351849e-01
  -6.78333180521e-01
  -5.29964891997e-01
  -4.14981850081e-01
  -3.25805353849e-01
  -2.56528402854e-01
  -2.02586599103e-01
  -1.60471030993e-01
  -1.27491006017e-01
  -1.01584548894e-01
  -8.11703237014e-02
  -6.50335279396e-02
  -5.22387177818e-02
  -4.20635337432e-02
  -3.39484315225e-02
  -2.74585702583e-02
  -2.22548935186e-02
  -1.80721469112e-02
  -1.47021282071e-02
  -1.19808881296e-02
  -9.77891933680e-03
  -7.99361105497e-03
  -6.54342640683e-03
  -5.36339368346e-03
  -4.40160310507e-03
  -3.61647564469e-03
  -2.97462672166e-03
  -2.44918981716e-03
  -2.01849689029e-03
  -1.66503652239e-03
  -1.37462894936e-03
  -1.13577101023e-03
  -9.39114624209e-04
  -7.77050514969e-04
  -6.43375130041e-04
  -5.33023506195e-04
  -4.41854547439e-04
  -3.66478066150e-04
  -3.04115183190e-04
  -2.52485436701e-04
  -2.09715322898e-04
  -1.74264071530e-04
  -1.44863309152e-04
  -1.20467934988e-04
  -1.00216066392e-04
  -8.33963335044e-05
  -6.94211390455e-05
  -5.78047676250e-05
  -4.81454436497e-05
  -4.01106088417e-05
  -3.34248287382e-05
  -2.78598485428e-05
  -2.32264085192e-05
  -1.93675014265e-05
  -1.61528131154e-05
  -1.34741350319e-05
  -1.12415756722e-05
  -9.38042966256e-06
  -7.82858850638e-06
  -6.53439786281e-06
  -5.45488330856e-06
  -4.55428032792e-06
  -3.80281569602e-06
  -3.17569679706e-06
  -2.65227286935e-06
  -2.21533875587e-06
  -1.85055657075e-06
  -1.54597517969e-06
  -1.29163079478e-06
  -1.07921483970e-06
  -9.01797677642e-07
  -7.53598732488e-07
  -6.29795162136e-07
  -5.26362508712e-07
</dep>
<dep dBS21 frequency>
  -6.76251796278e+01
  -6.68454971388e+01
  -6.60655166524e+01
  -6.52852197736e+01
  -6.45045869635e+01
  -6.37235974669e+01
  -6.29422292354e+01
  -6.21604588457e+01
  -6.13782614123e+01
  -6.05956104943e+01
  -5.98124779970e+01
  -5.90288340656e+01
  -5.82446469734e+01
  -5.74598830013e+01
  -5.66745063101e+01
  -5.58884788041e+01
  -5.51017599852e+01
  -5.43143067978e+01
  -5.35260734628e+01
  -5.27370113003e+01
  -5.19470685411e+01
  -5.11561901242e+01
  -5.03643174813e+01
  -4.95713883061e+01
  -4.87773363086e+01
  -4.79820909514e+01
  -4.71855771687e+01
  -4.63877150662e+01
  -4.55884195994e+01
  -4.47876002313e+01
  -4.39851605654e+01
  -4.31809979556e+01
  -4.23750030883e+01
  -4.15670595379e+01
  -4.07570432934e+01
  -3.99448222544e+01
  -3.91302556966e+01
  -3.83131937054e+01
  -3.74934765775e+01
  -3.66709341916e+01
  -3.58453853495e+01
  -3.50166370896e+01
  -3.41844839798e+01
  -3.33487073939e+01
  -3.25090747860e+01
  -3.16653389747e+01
  -3.08172374611e+01
  -2.99644918098e+01
  -2.91068071341e+01
  -2.82438717417e+01
  -2.73753570186e+01
  -2.65009176546e+01
  -2.56201923528e+01
  -2.47328052140e+01
  -2.38383680550e+01
  -2.29364840117e+01
  -2.20267528995e+01
  -2.11087789701e+01
  -2.01821819282e+01
  -1.92466123668e+01
  -1.83017731801e+01
  -1.73474490296e+01
  -1.63835466086e+01
  -1.54101492840e+01
  -1.44275906786e+01
  -1.34365528198e+01
  -1.24381953984e+01
  -1.14343229921e+01
  -1.04275958830e+01
  -9.42178571684e+00
  -8.42206718083e+00
  -7.43531774313e+00
  -6.47036628562e+00
  -5.53808879754e+00
  -4.65120588201e+00
  -3.82362106245e+00
  -3.06919664014e+00
  -2.40003404196e+00
  -1.82458532220e+00
  -1.34614231532e+00
  -9.62244318867e-01
  -6.65237638688e-01
  -4.43766698850e-01
  -2.84660734129e-01
  -1.74665118519e-01
  -1.01681924339e-01
  -5.54453366478e-02
  -2.77314199322e-02
  -1.22626492359e-02
  -4.45349051125e-03
  -1.10035154534e-03
  -7.64546822017e-05
  -6.07520798241e-05
  -3.10736946843e-04
  -4.78910593470e-04
  -4.68359461739e-04
  -3.21790688321e-04
  -1.38811937930e-04
  -1.72801972899e-05
  -1.57108216290e-05
  -1.34835727095e-04
  -3.17386222633e-04
  -4.66089662989e-04
  -4.80781862356e-04
  -3.16521397977e-04
  -6.56869205716e-05
  -6.82050237181e-05
  -1.05510237850e-03
  -4.33103619750e-03
  -1.20004046122e-02
  -2.72374362116e-02
  -5.45907411358e-02
  -1.00293800436e-01
  -1.72521748268e-01
  -2.81492230696e-01
  -4.39264908325e-01
  -6.59078852554e-01
  -9.54125627509e-01
  -1.33582692759e+00
  -1.81194570067e+00
  -2.38507855606e+00
  -3.05206948687e+00
  -3.80457549251e+00
  -4.63056103027e+00
  -5.51618440838e+00
  -6.44752643445e+00
  -7.41182817491e+00
  -8.39816539838e+00
  -9.39766026313e+00
  -1.04033909382e+01
  -1.14101452654e+01
  -1.24141214028e+01
  -1.34126355265e+01
  -1.44038651452e+01
  -1.53866371939e+01
  -1.63602598186e+01
  -1.73243922841e+01
  -1.82789461575e+01
  -1.92240112059e+01
  -2.01598003565e+01
  -2.10866091325e+01
  -2.20047859626e+01
  -2.29147106011e+01
  -2.38167785693e+01
  -2.47113900472e+01
  -2.55989420499e+01
  -2.64798230174e+01
  -2.73544091757e+01
  -2.82230621923e+01
  -2.90861277720e+01
  -2.99439349345e+01
  -3.07967957787e+01
  -3.16450055917e+01
  -3.24888431991e+01
  -3.33285714757e+01
  -3.41644379632e+01
  -3.49966755513e+01
  -3.58255031919e+01
  -3.66511266260e+01
  -3.74737391065e+01
  -3.82935221062e+01
  -3.91106460049e+01
  -3.99252707485e+01
  -4.07375464801e+01
  -4.15476141379e+01
  -4.23556060233e+01
  -4.31616463358e+01
  -4.39658516775e+01
  -4.47683315276e+01
  -4.55691886877e+01
  -4.63685196996e+01
  -4.71664152368e+01
  -4.79629604717e+01
  -4.87582354186e+01
  -4.95523152558e+01
  -5.03452706260e+01
  -5.11371679184e+01
  -5.19280695319e+01
  -5.27180341219e+01
  -5.35071168311e+01
  -5.42953695055e+01
  -5.50828408970e+01
  -5.58695768522e+01
  -5.66556204902e+01
  -5.74410123687e+01
  -5.82257906395e+01
  -5.90099911944e+01
  -5.97936478017e+01
  -6.05767922349e+01
  -6.13594543921e+01
  -6.21416624093e+01
  -6.29234427659e+01
  -6.37048203835e+01
  -6.44858187198e+01
  -6.52664598550e+01
  -6.60467645746e+01
  -6.68267524459e+01
  -6.76064418905e+01
  -6.83858502523e+01
  -6.91649938609e+01
</dep>
<dep S[1,1] frequency>
  -9.89529053466e-01+j1.44333224075e-01
  -9.88883173750e-01+j1.48693853003e-01
  -9.88197173468e-01+j1.53186484136e-01
  -9.87468524579e-01+j1.57815135012e-01
  -9.86694535162e-01+j1.62583947063e-01
  -9.85872338205e-01+j1.67497189514e-01
  -9.84998879551e-01+j1.72559263401e-01
  -9.84070904934e-01+j1.77774705715e-01
  -9.83084946018e-01+j1.83148193662e-01
  -9.82037305355e-01+j1.88684549041e-01
  -9.80924040164e-01+j1.94388742742e-01
  -9.79740944821e-01+j2.00265899359e-01
  -9.78483531949e-01+j2.06321301913e-01
  -9.77147011959e-01+j2.12560396680e-01
  -9.75726270915e-01+j2.18988798110e-01
  -9.74215846539e-01+j2.25612293833e-01
  -9.72609902194e-01+j2.32436849726e-01
  -9.70902198620e-01+j2.39468615027e-01
  -9.69086063203e-01+j2.46713927467e-01
  -9.67154356532e-01+j2.54179318388e-01
  -9.65099435926e-01+j2.61871517794e-01
  -9.62913115640e-01+j2.69797459299e-01
  -9.60586623359e-01+j2.77964284889e-01
  -9.58110552581e-01+j2.86379349423e-01
  -9.55474810407e-01+j2.95050224770e-01
  -9.52668560227e-01+j3.03984703450e-01
  -9.49680158676e-01+j3.13190801629e-01
  -9.46497086192e-01+j3.22676761263e-01
  -9.43105870385e-01+j3.32451051163e-01
  -9.39492001316e-01+j3.42522366674e-01
  -9.35639837682e-01+j3.52899627604e-01
  -9.31532502704e-01+j3.63591973948e-01
  -9.27151768394e-01+j3.74608758849e-01
  -9.22477926631e-01+j3.85959538093e-01
  -9.17489645261e-01+j3.97654055266e-01
  -9.12163807149e-01+j4.09702221508e-01
  -9.06475329786e-01+j4.22114088508e-01
  -9.00396962690e-01+j4.34899813066e-01
  -8.93899059371e-01+j4.48069611113e-01
  -8.86949320134e-01+j4.61633698556e-01
  -8.79512501393e-01+j4.75602215625e-01
  -8.71550086449e-01+j4.89985130532e-01
  -8.63019911906e-01+j5.04792117141e-01
  -8.53875742932e-01+j5.20032399924e-01
  -8.44066789538e-01+j5.35714557657e-01
  -8.33537154823e-01+j5.51846274925e-01
  -8.22225204817e-01+j5.68434027466e-01
  -8.10062848092e-01+j5.85482683401e-01
  -7.96974711844e-01+j6.02994997263e-01
  -7.82877199662e-01+j6.20970966945e-01
  -7.67677415039e-01+j6.39407014961e-01
  -7.51271933968e-01+j6.58294943836e-01
  -7.33545410429e-01+j6.77620600403e-01
  -7.14369000874e-01+j6.97362164019e-01
  -6.93598599441e-01+j7.17487947938e-01
  -6.71072886649e-01+j7.37953569491e-01
  -6.46611214102e-01+j7.58698301290e-01
  -6.20011381516e-01+j7.79640360094e-01
  -5.91047418133e-01+j8.00670820059e-01
  -5.59467570580e-01+j8.21645751457e-01
  -5.24992841860e-01+j8.42376085802e-01
  -4.87316648372e-01+j8.62614600302e-01
  -4.46106502372e-01+j8.82039317217e-01
  -4.01009138476e-01+j9.00232567600e-01
  -3.51661250275e-01+j9.16655055896e-01
  -2.97709054901e-01+j9.30614634508e-01
  -2.38841297403e-01+j9.41230423839e-01
  -1.74841969541e-01+j9.47394831429e-01
  -1.05670593476e-01+j9.47739580903e-01
  -3.15784584327e-02+j9.40617855612e-01
  +4.67333247110e-02+j9.24123696825e-01
  +1.27917237397e-01+j8.96181294608e-01
  +2.09768219727e-01+j8.54746970930e-01
  +2.89058015696e-01+j7.98165497088e-01
  +3.61522051563e-01+j7.25692208139e-01
  +4.22139767514e-01+j6.38114261256e-01
  +4.65819732842e-01+j5.38281465956e-01
  +4.88455106292e-01+j4.31249559235e-01
  +4.88068770974e-01+j3.23766941454e-01
  +4.65570347157e-01+j2.23088519061e-01
  +4.24712287362e-01+j1.35482797952e-01
  +3.71205575871e-01+j6.50250270026e-02
  +3.11386726355e-01+j1.31240772950e-02
  +2.50988394515e-01-j2.11765453119e-02
  +1.94385287261e-01-j4.04286397569e-02
  +1.44374987820e-01-j4.79273464971e-02
  +1.02338689596e-01-j4.70361966324e-02
  +6.85760502677e-02-j4.07722629957e-02
  +4.26604730135e-02-j3.16177295909e-02
  +2.37365978024e-02-j2.14826072137e-02
  +1.07381469286e-02-j1.17484217152e-02
  +2.53375559983e-03-j3.34428897631e-03
  -1.98149180478e-03+j3.17210903393e-03
  -3.83113061805e-03+j7.54120048289e-03
  -3.92511744462e-03+j9.73964129296e-03
  -3.04084825669e-03+j9.92930906093e-03
  -1.81150253805e-03+j8.41491282093e-03
  -7.18428953016e-04+j5.60767143663e-03
  -8.59741339972e-05+j1.99286552505e-03
  -7.81302122408e-05-j1.90037877678e-03
  -6.96848139777e-04-j5.52819990910e-03
  -1.78201759492e-03-j8.36077875824e-03
  -3.01311378886e-03-j9.91143267095e-03
  -3.91250920657e-03-j9.76679369903e-03
  -3.85059650191e-03-j7.61918604770e-03
  -2.05333048777e-03-j3.30283089740e-03
  +2.38624326112e-03+j3.16393850560e-03
  +1.04892392354e-02+j1.15279075305e-02
  +2.33591464072e-02+j2.12393766680e-02
  +4.21275882800e-02+j3.13790929200e-02
  +6.78638625356e-02+j4.05773565553e-02
  +1.01430636767e-01+j4.69375792890e-02
  +1.43267994092e-01+j4.79913411385e-02
  +1.93097768023e-01+j4.07329784977e-02
  +2.49569013055e-01+j2.18034550986e-02
  +3.09921164466e-01-j1.21009269319e-02
  +3.69816782929e-01-j6.35594817194e-02
  +4.23549270107e-01-j1.33577129440e-01
  +4.64783621640e-01-j2.20808047916e-01
  +4.87777533239e-01-j3.21238907828e-01
  +4.88718252272e-01-j4.28642090530e-01
  +4.66623637095e-01-j5.35768816448e-01
  +4.23407710421e-01-j6.35842344547e-01
  +3.63139029107e-01-j7.23757276795e-01
  +2.90898866852e-01-j7.96610255706e-01
  +2.11719244313e-01-j8.53569861884e-01
  +1.29887659296e-01-j8.95351349051e-01
  +4.86580077471e-02-j9.23594796551e-01
  -2.97416389171e-02-j9.40339406797e-01
  -1.03945597946e-01-j9.47663131102e-01
  -1.73239654851e-01-j9.47477418807e-01
  -2.37363733876e-01-j9.41435748601e-01
  -2.96352822873e-01-j9.30912981484e-01
  -3.50419780274e-01-j9.17022612074e-01
  -3.99874283728e-01-j9.00650524211e-01
  -4.45069546121e-01-j8.82492965624e-01
  -4.86368917868e-01-j8.63092518745e-01
  -5.24126059643e-01-j8.42869450762e-01
  -5.58674036220e-01-j8.22147775101e-01
  -5.90320084077e-01-j8.01176300836e-01
  -6.19343865266e-01-j7.80145328738e-01
  -6.45997774011e-01-j7.59199744404e-01
  -6.70508378586e-01-j7.38449214821e-01
  -6.93078424956e-01-j7.17976098015e-01
  -7.13889053221e-01-j6.97841567407e-01
  -7.33102022080e-01-j6.78090352019e-01
  -7.50861827547e-01-j6.58754407707e-01
  -7.67297658563e-01-j6.39855764262e-01
  -7.82525166358e-01-j6.21408737369e-01
  -7.96648044449e-01-j6.03421650672e-01
  -8.09759427357e-01-j5.85898179431e-01
  -8.21943121839e-01-j5.68838401296e-01
  -8.33274686814e-01-j5.52239619834e-01
  -8.43822378620e-01-j5.36097011307e-01
  -8.53647977608e-01-j5.20404133565e-01
  -8.62807510853e-01-j5.05153327092e-01
  -8.71351884333e-01-j4.90336031455e-01
  -8.79327436445e-01-j4.75943035214e-01
  -8.86776423248e-01-j4.61964673343e-01
  -8.93737444521e-01-j4.48390983153e-01
  -9.00245818501e-01-j4.35211827328e-01
  -9.06333912089e-01-j4.22416990817e-01
  -9.12031432410e-01-j4.09996256937e-01
  -9.17365684755e-01-j3.97939466881e-01
  -9.22361801270e-01-j3.86236565980e-01
  -9.27042944135e-01-j3.74877639369e-01
  -9.31430486448e-01-j3.63852939172e-01
  -9.35544173614e-01-j3.53152904896e-01
  -9.39402267631e-01-j3.42768178389e-01
  -9.43021676349e-01-j3.32689614437e-01
  -9.46418069504e-01-j3.22908287878e-01
  -9.49605983089e-01-j3.13415497942e-01
  -9.52598913407e-01-j3.04202770363e-01
  -9.55409401992e-01-j2.95261857737e-01
  -9.58049112429e-01-j2.86584738493e-01
  -9.60528899957e-01-j2.78163614769e-01
  -9.62858874656e-01-j2.69990909431e-01
  -9.65048458896e-01-j2.62059262452e-01
  -9.67106439659e-01-j2.54361526779e-01
  -9.69041016266e-01-j2.46890763846e-01
  -9.70859843966e-01-j2.39640238812e-01
