<Qucs Dataset 0.0.17>
<indep frequency 200>
  +1.00000000000e+06
  +1.02078771187e+06
  +1.04200755270e+06
  +1.06366850547e+06
  +1.08577973989e+06
  +1.10835061628e+06
  +1.13139068954e+06
  +1.15490971320e+06
  +1.17891764355e+06
  +1.20342464385e+06
  +1.22844108860e+06
  +1.25397756800e+06
  +1.28004489237e+06
  +1.30665409677e+06
  +1.33381644565e+06
  +1.36154343761e+06
  +1.38984681028e+06
  +1.41873854532e+06
  +1.44823087342e+06
  +1.47833627953e+06
  +1.50906750816e+06
  +1.54043756871e+06
  +1.57245974104e+06
  +1.60514758106e+06
  +1.63851492648e+06
  +1.67257590267e+06
  +1.70734492861e+06
  +1.74283672305e+06
  +1.77906631068e+06
  +1.81604902854e+06
  +1.85380053249e+06
  +1.89233680382e+06
  +1.93167415606e+06
  +1.97182924184e+06
  +2.01281905997e+06
  +2.05466096264e+06
  +2.09737266272e+06
  +2.14097224131e+06
  +2.18547815538e+06
  +2.23090924557e+06
  +2.27728474418e+06
  +2.32462428328e+06
  +2.37294790309e+06
  +2.42227606038e+06
  +2.47262963719e+06
  +2.52402994964e+06
  +2.57649875699e+06
  +2.63005827078e+06
  +2.68473116431e+06
  +2.74054058220e+06
  +2.79751015019e+06
  +2.85566398514e+06
  +2.91502670526e+06
  +2.97562344049e+06
  +3.03747984321e+06
  +3.10062209900e+06
  +3.16507693780e+06
  +3.23087164523e+06
  +3.29803407408e+06
  +3.36659265614e+06
  +3.43657641426e+06
  +3.50801497457e+06
  +3.58093857910e+06
  +3.65537809850e+06
  +3.73136504519e+06
  +3.80893158662e+06
  +3.88811055897e+06
  +3.96893548099e+06
  +4.05144056819e+06
  +4.13566074738e+06
  +4.22163167138e+06
  +4.30938973419e+06
  +4.39897208631e+06
  +4.49041665056e+06
  +4.58376213807e+06
  +4.67904806467e+06
  +4.77631476766e+06
  +4.87560342284e+06
  +4.97695606199e+06
  +5.08041559059e+06
  +5.18602580606e+06
  +5.29383141626e+06
  +5.40387805842e+06
  +5.51621231848e+06
  +5.63088175076e+06
  +5.74793489817e+06
  +5.86742131267e+06
  +5.98939157633e+06
  +6.11389732269e+06
  +6.24099125863e+06
  +6.37072718670e+06
  +6.50316002785e+06
  +6.63834584475e+06
  +6.77634186545e+06
  +6.91720650768e+06
  +7.06099940350e+06
  +7.20778142460e+06
  +7.35761470807e+06
  +7.51056268267e+06
  +7.66669009569e+06
  +7.82606304039e+06
  +7.98874898394e+06
  +8.15481679601e+06
  +8.32433677791e+06
  +8.49738069235e+06
  +8.67402179383e+06
  +8.85433485962e+06
  +9.03839622148e+06
  +9.22628379789e+06
  +9.41807712710e+06
  +9.61385740078e+06
  +9.81370749837e+06
  +1.00177120222e+07
  +1.02259573333e+07
  +1.04385315880e+07
  +1.06555247749e+07
  +1.08770287538e+07
  +1.11031372935e+07
  +1.13339461124e+07
  +1.15695529185e+07
  +1.18100574510e+07
  +1.20555615225e+07
  +1.23061690618e+07
  +1.25619861585e+07
  +1.28231211073e+07
  +1.30896844541e+07
  +1.33617890430e+07
  +1.36395500637e+07
  +1.39230851004e+07
  +1.42125141818e+07
  +1.45079598316e+07
  +1.48095471204e+07
  +1.51174037188e+07
  +1.54316599515e+07
  +1.57524488523e+07
  +1.60799062202e+07
  +1.64141706776e+07
  +1.67553837282e+07
  +1.71036898174e+07
  +1.74592363932e+07
  +1.78221739688e+07
  +1.81926561862e+07
  +1.85708398811e+07
  +1.89568851497e+07
  +1.93509554162e+07
  +1.97532175017e+07
  +2.01638416956e+07
  +2.05830018270e+07
  +2.10108753384e+07
  +2.14476433610e+07
  +2.18934907915e+07
  +2.23486063699e+07
  +2.28131827597e+07
  +2.32874166298e+07
  +2.37715087368e+07
  +2.42656640112e+07
  +2.47700916429e+07
  +2.52850051710e+07
  +2.58106225731e+07
  +2.63471663583e+07
  +2.68948636611e+07
  +2.74539463376e+07
  +2.80246510638e+07
  +2.86072194353e+07
  +2.92018980703e+07
  +2.98089387134e+07
  +3.04285983425e+07
  +3.10611392775e+07
  +3.17068292911e+07
  +3.23659417227e+07
  +3.30387555936e+07
  +3.37255557254e+07
  +3.44266328604e+07
  +3.51422837849e+07
  +3.58728114547e+07
  +3.66185251231e+07
  +3.73797404724e+07
  +3.81567797471e+07
  +3.89499718903e+07
  +3.97596526833e+07
  +4.05861648873e+07
  +4.14298583888e+07
  +4.22910903478e+07
  +4.31702253486e+07
  +4.40676355544e+07
  +4.49837008651e+07
  +4.59188090775e+07
  +4.68733560500e+07
  +4.78477458699e+07
  +4.88423910246e+07
  +4.98577125762e+07
  +5.08941403397e+07
  +5.19521130649e+07
  +5.30320786223e+07
  +5.41344941925e+07
  +5.52598264599e+07
  +5.64085518103e+07
  +5.75811565323e+07
  +5.87781370234e+07
  +6.00000000000e+07
</indep>
<dep dBS11 frequency>
  -5.05907785362e-05
  -6.23047526607e-05
  -7.67380635269e-05
  -9.45238583861e-05
  -1.16443186494e-04
  -1.43459670814e-04
  -1.76762336611e-04
  -2.17818522032e-04
  -2.68439251101e-04
  -3.30860012487e-04
  -4.07840583162e-04
  -5.02788395979e-04
  -6.19911012409e-04
  -7.64404572971e-04
  -9.42686716075e-04
  -1.16268445108e-03
  -1.43418992831e-03
  -1.76930007180e-03
  -2.18295975307e-03
  -2.69363273606e-03
  -3.32413019055e-03
  -4.10263336073e-03
  -5.06395522552e-03
  -6.25109596655e-03
  -7.71715906213e-03
  -9.52770915656e-03
  -1.17636698059e-02
  -1.45248790101e-02
  -1.79344432139e-02
  -2.21440560566e-02
  -2.73404760191e-02
  -3.37533860103e-02
  -4.16648855381e-02
  -5.14208884911e-02
  -6.34447104039e-02
  -7.82531187427e-02
  -9.64750740353e-02
  -1.18873288530e-01
  -1.46368545495e-01
  -1.80066421907e-01
  -2.21285599956e-01
  -2.71586297705e-01
  -3.32796466228e-01
  -4.07032290544e-01
  -4.96708258192e-01
  -6.04530790148e-01
  -7.33468477381e-01
  -8.86691811953e-01
  -1.06747654771e+00
  -1.27906805371e+00
  -1.52450951649e+00
  -1.80644423116e+00
  -2.12691018146e+00
  -2.48715143975e+00
  -2.88747309910e+00
  -3.32716270315e+00
  -3.80449148814e+00
  -4.31679541902e+00
  -4.86062271238e+00
  -5.43192500028e+00
  -6.02626567013e+00
  -6.63902118809e+00
  -7.26555756384e+00
  -7.90137202068e+00
  -8.54219720703e+00
  -9.18407063653e+00
  -9.82337512219e+00
  -1.04568570751e+01
  -1.10816292600e+01
  -1.16951635472e+01
  -1.22952778582e+01
  -1.28801201853e+01
  -1.34481514447e+01
  -1.39981280714e+01
  -1.45290846707e+01
  -1.50403166861e+01
  -1.55313628733e+01
  -1.60019873331e+01
  -1.64521609141e+01
  -1.68820419021e+01
  -1.72919560404e+01
  -1.76823760439e+01
  -1.80539008693e+01
  -1.84072350710e+01
  -1.87431686028e+01
  -1.90625574229e+01
  -1.93663052302e+01
  -1.96553466064e+01
  -1.99306317729e+01
  -2.01931130995e+01
  -2.04437334306e+01
  -2.06834162311e+01
  -2.09130574952e+01
  -2.11335193200e+01
  -2.13456250113e+01
  -2.15501555672e+01
  -2.17478473763e+01
  -2.19393909601e+01
  -2.21254305989e+01
  -2.23065646844e+01
  -2.24833466566e+01
  -2.26562863988e+01
  -2.28258519763e+01
  -2.29924716228e+01
  -2.31565358919e+01
  -2.33183999045e+01
  -2.34783856381e+01
  -2.36367842105e+01
  -2.37938581258e+01
  -2.39498434537e+01
  -2.41049519241e+01
  -2.42593729219e+01
  -2.44132753748e+01
  -2.45668095270e+01
  -2.47201085990e+01
  -2.48732903317e+01
  -2.50264584185e+01
  -2.51797038293e+01
  -2.53331060292e+01
  -2.54867340984e+01
  -2.56406477593e+01
  -2.57948983150e+01
  -2.59495295064e+01
  -2.61045782932e+01
  -2.62600755646e+01
  -2.64160467849e+01
  -2.65725125787e+01
  -2.67294892627e+01
  -2.68869893252e+01
  -2.70450218611e+01
  -2.72035929642e+01
  -2.73627060815e+01
  -2.75223623322e+01
  -2.76825607951e+01
  -2.78432987678e+01
  -2.80045719987e+01
  -2.81663748961e+01
  -2.83287007154e+01
  -2.84915417267e+01
  -2.86548893656e+01
  -2.88187343666e+01
  -2.89830668838e+01
  -2.91478765970e+01
  -2.93131528074e+01
  -2.94788845215e+01
  -2.96450605265e+01
  -2.98116694563e+01
  -2.99786998501e+01
  -3.01461402040e+01
  -3.03139790161e+01
  -3.04822048262e+01
  -3.06508062502e+01
  -3.08197720103e+01
  -3.09890909603e+01
  -3.11587521082e+01
  -3.13287446351e+01
  -3.14990579109e+01
  -3.16696815077e+01
  -3.18406052106e+01
  -3.20118190270e+01
  -3.21833131932e+01
  -3.23550781799e+01
  -3.25271046960e+01
  -3.26993836913e+01
  -3.28719063582e+01
  -3.30446641313e+01
  -3.32176486880e+01
  -3.33908519465e+01
  -3.35642660644e+01
  -3.37378834357e+01
  -3.39116966885e+01
  -3.40856986810e+01
  -3.42598824980e+01
  -3.44342414468e+01
  -3.46087690528e+01
  -3.47834590549e+01
  -3.49583054009e+01
  -3.51333022426e+01
  -3.53084439307e+01
  -3.54837250101e+01
  -3.56591402145e+01
  -3.58346844615e+01
  -3.60103528473e+01
  -3.61861406420e+01
  -3.63620432841e+01
  -3.65380563757e+01
  -3.67141756778e+01
  -3.68903971048e+01
  -3.70667167203e+01
  -3.72431307321e+01
  -3.74196354875e+01
  -3.75962274688e+01
  -3.77729032888e+01
  -3.79496596868e+01
  -3.81264935236e+01
  -3.83034017782e+01
  -3.84803815432e+01
  -3.86574300209e+01
  -3.88345445197e+01
  -3.90117224502e+01
</dep>
<dep group_delay frequency>
  +1.68444998405e-07
  +1.68723530663e-07
  +1.69294014046e-07
  +1.69892082970e-07
  +1.70519285618e-07
  +1.71177280103e-07
  +1.71867844533e-07
  +1.72592888160e-07
  +1.73354463725e-07
  +1.74154781124e-07
  +1.74996222524e-07
  +1.75881359054e-07
  +1.76812969212e-07
  +1.77794059103e-07
  +1.78827884617e-07
  +1.79917975631e-07
  +1.81068162262e-07
  +1.82282603142e-07
  +1.83565815562e-07
  +1.84922707205e-07
  +1.86358608966e-07
  +1.87879308070e-07
  +1.89491080301e-07
  +1.91200719611e-07
  +1.93015562667e-07
  +1.94943504909e-07
  +1.96993003423e-07
  +1.99173060259e-07
  +2.01493177664e-07
  +2.03963273889e-07
  +2.06593544756e-07
  +2.09394251789e-07
  +2.12375412431e-07
  +2.15546361704e-07
  +2.18915147765e-07
  +2.22487716684e-07
  +2.26266835511e-07
  +2.30250698982e-07
  +2.34431167195e-07
  +2.38791593622e-07
  +2.43304231422e-07
  +2.47927259286e-07
  +2.52601554932e-07
  +2.57247472375e-07
  +2.61762048889e-07
  +2.66017265796e-07
  +2.69860176549e-07
  +2.73115826826e-07
  +2.75593825754e-07
  +2.77099078005e-07
  +2.77446488219e-07
  +2.76478448555e-07
  +2.74082831668e-07
  +2.70208407595e-07
  +2.64874493570e-07
  +2.58172470358e-07
  +2.50258440989e-07
  +2.41338273711e-07
  +2.31647888588e-07
  +2.21432387483e-07
  +2.10927345927e-07
  +2.00344540825e-07
  +1.89863054720e-07
  +1.79625520916e-07
  +1.69738510494e-07
  +1.60275754488e-07
  +1.51282940065e-07
  +1.42783065882e-07
  +1.34781653806e-07
  +1.27271403546e-07
  +1.20236102169e-07
  +1.13653753611e-07
  +1.07498983919e-07
  +1.01744822146e-07
  +9.63639704381e-08
  +9.13296726129e-08
  +8.66162774113e-08
  +8.21995762577e-08
  +7.80569791515e-08
  +7.41675777745e-08
  +7.05121327162e-08
  +6.70730119181e-08
  +6.38340998165e-08
  +6.07806908651e-08
  +5.78993768086e-08
  +5.51779339302e-08
  +5.26052142286e-08
  +5.01710428896e-08
  +4.78661233063e-08
  +4.56819501595e-08
  +4.36107305761e-08
  +4.16453130765e-08
  +3.97791238392e-08
  +3.80061097158e-08
  +3.63206873910e-08
  +3.47176980857e-08
  +3.31923672215e-08
  +3.17402685043e-08
  +3.03572919299e-08
  +2.90396152599e-08
  +2.77836785626e-08
  +2.65861614599e-08
  +2.54439627611e-08
  +2.43541822015e-08
  +2.33141040405e-08
  +2.23211823016e-08
  +2.13730274636e-08
  +2.04673944394e-08
  +1.96021716938e-08
  +1.87753713761e-08
  +1.79851203536e-08
  +1.72296520493e-08
  +1.65072989983e-08
  +1.58164860467e-08
  +1.51557241269e-08
  +1.45236045514e-08
  +1.39187937718e-08
  +1.33400285594e-08
  +1.27861115648e-08
  +1.22559072220e-08
  +1.17483379639e-08
  +1.12623807213e-08
  +1.07970636794e-08
  +1.03514632694e-08
  +9.92470137394e-09
  +9.51594272932e-09
  +9.12439250624e-09
  +8.74929405553e-09
  +8.38992680474e-09
  +8.04560429353e-09
  +7.71567233685e-09
  +7.39950730589e-09
  +7.09651451777e-09
  +6.80612672556e-09
  +6.52780270131e-09
  +6.26102590503e-09
  +6.00530323351e-09
  +5.76016384311e-09
  +5.52515804138e-09
  +5.29985624266e-09
  +5.08384798330e-09
  +4.87674099227e-09
  +4.67816031375e-09
  +4.48774747794e-09
  +4.30515971713e-09
  +4.13006922410e-09
  +3.96216245001e-09
  +3.80113943955e-09
  +3.64671320073e-09
  +3.49860910743e-09
  +3.35656433267e-09
  +3.22032731061e-09
  +3.08965722583e-09
  +2.96432352806e-09
  +2.84410547107e-09
  +2.72879167421e-09
  +2.61817970542e-09
  +2.51207568440e-09
  +2.41029390496e-09
  +2.31265647537e-09
  +2.21899297584e-09
  +2.12914013211e-09
  +2.04294150441e-09
  +1.96024719086e-09
  +1.88091354468e-09
  +1.80480290437e-09
  +1.73178333632e-09
  +1.66172838910e-09
  +1.59451685896e-09
  +1.53003256588e-09
  +1.46816413969e-09
  +1.40880481579e-09
  +1.35185223995e-09
  +1.29720828179e-09
  +1.24477885650e-09
  +1.19447375439e-09
  +1.14620647798e-09
  +1.09989408616e-09
  +1.05545704517e-09
  +1.01281908601e-09
  +9.71907068139e-10
  +9.32650848911e-10
  +8.94983158752e-10
  +8.58839481643e-10
  +8.24157940736e-10
  +7.90879188860e-10
  +7.58946303693e-10
  +7.28304687390e-10
  +6.98901970476e-10
  +6.70687919806e-10
  +6.43614350416e-10
  +6.17635041094e-10
  +5.92705653499e-10
  +5.68783654690e-10
  +5.45828242898e-10
  +5.23800276411e-10
  +5.02662205428e-10
  +4.82378006767e-10
  +4.62913121289e-10
  +4.53381276542e-10
</dep>
<dep gain_phase frequency>
  +5.65694480686e-01
  +5.43693366397e-01
  +5.21160626878e-01
  +4.98080014295e-01
  +4.74434551319e-01
  +4.50206482692e-01
  +4.25377222475e-01
  +3.99927296512e-01
  +3.73836279576e-01
  +3.47082726613e-01
  +3.19644097396e-01
  +2.91496673874e-01
  +2.62615469353e-01
  +2.32974128602e-01
  +2.02544817845e-01
  +1.71298103508e-01
  +1.39202818474e-01
  +1.06225914491e-01
  +7.23322992925e-02
  +3.74846568848e-02
  +1.64324943354e-03
  -3.52343008336e-02
  -7.31932511964e-02
  -1.12282000769e-01
  -1.52552376494e-01
  -1.94059943073e-01
  -2.36864336150e-01
  -2.81029616593e-01
  -3.26624641592e-01
  -3.73723445353e-01
  -4.22405617910e-01
  -4.72756664931e-01
  -5.24868323615e-01
  -5.78838799558e-01
  -6.34772876045e-01
  -6.92781830195e-01
  -7.52983069025e-01
  -8.15499372980e-01
  -8.80457604964e-01
  -9.47986711528e-01
  -1.01821481300e+00
  -1.09126515799e+00
  -1.16725071544e+00
  -1.24626720989e+00
  -1.32838449330e+00
  -1.41363631170e+00
  -1.50200878649e+00
  -1.59342829123e+00
  -1.68774983886e+00
  -1.78474752800e+00
  -1.88410890417e+00
  -1.98543511020e+00
  -2.08824828225e+00
  -2.19200673740e+00
  -2.29612720875e+00
  -2.40001200731e+00
  -2.50307793139e+00
  -2.60478335126e+00
  -2.70465030868e+00
  -2.80227954212e+00
  -2.89735772692e+00
  -2.98965750364e+00
  -3.07903176601e+00
  -3.16540408582e+00
  -3.24875712457e+00
  -3.32912056941e+00
  -3.40655969586e+00
  -3.48116522724e+00
  -3.55304480154e+00
  -3.62231609837e+00
  -3.68910151519e+00
  -3.75352419691e+00
  -3.81570519107e+00
  -3.87576150435e+00
  -3.93380485764e+00
  -3.98994096715e+00
  -4.04426921060e+00
  -4.09688256674e+00
  -4.14786774233e+00
  -4.19730542165e+00
  -4.24527059079e+00
  -4.29183290230e+00
  -4.33705705575e+00
  -4.38100317775e+00
  -4.42372719030e+00
  -4.46528116074e+00
  -4.50571362925e+00
  -4.54506991225e+00
  -4.58339238100e+00
  -4.62072071616e+00
  -4.65709213925e+00
  -4.69254162245e+00
  -4.72710207844e+00
  -4.76080453186e+00
  -4.79367827413e+00
  -4.82575100315e+00
  -4.85704894941e+00
  -4.88759698994e+00
  -4.91741875124e+00
  -4.94653670248e+00
  -4.97497223989e+00
  -5.00274576335e+00
  -5.02987674597e+00
  -5.05638379736e+00
  -5.08228472133e+00
  -5.10759656853e+00
  -5.13233568460e+00
  -5.15651775426e+00
  -5.18015784170e+00
  -5.20327042774e+00
  -5.22586944400e+00
  -5.24796830439e+00
  -5.26957993415e+00
  -5.29071679672e+00
  -5.31139091859e+00
  -5.33161391233e+00
  -5.35139699793e+00
  -5.37075102274e+00
  -5.38968647986e+00
  -5.40821352541e+00
  -5.42634199455e+00
  -5.44408141648e+00
  -5.46144102847e+00
  -5.47842978892e+00
  -5.49505638971e+00
  -5.51132926767e+00
  -5.52725661540e+00
  -5.54284639147e+00
  -5.55810632994e+00
  -5.57304394939e+00
  -5.58766656139e+00
  -5.60198127852e+00
  -5.61599502194e+00
  -5.62971452853e+00
  -5.64314635762e+00
  -5.65629689748e+00
  -5.66917237130e+00
  -5.68177884301e+00
  -5.69412222274e+00
  -5.70620827199e+00
  -5.71804260863e+00
  -5.72963071154e+00
  -5.74097792516e+00
  -5.75208946373e+00
  -5.76297041538e+00
  -5.77362574602e+00
  -5.78406030311e+00
  -5.79427881914e+00
  -5.80428591515e+00
  -5.81408610391e+00
  -5.82368379309e+00
  -5.83308328827e+00
  -5.84228879583e+00
  -5.85130442568e+00
  -5.86013419400e+00
  -5.86878202573e+00
  -5.87725175708e+00
  -5.88554713788e+00
  -5.89367183392e+00
  -5.90162942908e+00
  -5.90942342754e+00
  -5.91705725576e+00
  -5.92453426454e+00
  -5.93185773087e+00
  -5.93903085984e+00
  -5.94605678640e+00
  -5.95293857710e+00
  -5.95967923180e+00
  -5.96628168525e+00
  -5.97274880870e+00
  -5.97908341143e+00
  -5.98528824220e+00
  -5.99136599073e+00
  -5.99731928907e+00
  -6.00315071295e+00
  -6.00886278313e+00
  -6.01445796663e+00
  -6.01993867802e+00
  -6.02530728057e+00
  -6.03056608749e+00
  -6.03571736302e+00
  -6.04076332358e+00
  -6.04570613880e+00
  -6.05054793264e+00
  -6.05529078435e+00
  -6.05993672951e+00
  -6.06448776098e+00
  -6.06894582987e+00
  -6.07331284643e+00
  -6.07759068098e+00
  -6.08178116477e+00
  -6.08588609085e+00
  -6.08990721488e+00
  -6.09384625596e+00
  -6.09770489745e+00
  -6.10148478768e+00
  -6.10518754075e+00
  -6.10881473730e+00
  -6.11236792513e+00
  -6.11584862001e+00
</dep>
<dep dBS21 frequency>
  -4.93371547808e+01
  -4.84326625027e+01
  -4.75277731256e+01
  -4.66224759662e+01
  -4.57167605195e+01
  -4.48106165431e+01
  -4.39040341555e+01
  -4.29970039529e+01
  -4.20895171465e+01
  -4.11815657239e+01
  -4.02731426406e+01
  -3.93642420458e+01
  -3.84548595504e+01
  -3.75449925446e+01
  -3.66346405755e+01
  -3.57238057967e+01
  -3.48124935051e+01
  -3.39007127817e+01
  -3.29884772596e+01
  -3.20758060453e+01
  -3.11627248249e+01
  -3.02492671963e+01
  -2.93354762738e+01
  -2.84214066239e+01
  -2.75071266032e+01
  -2.65927211829e+01
  -2.56782953622e+01
  -2.47639782937e+01
  -2.38499282660e+01
  -2.29363387147e+01
  -2.20234454624e+01
  -2.11115354144e+01
  -2.02009569701e+01
  -1.92921324249e+01
  -1.83855726561e+01
  -1.74818943708e+01
  -1.65818401486e+01
  -1.56863014125e+01
  -1.47963442745e+01
  -1.39132379019e+01
  -1.30384845920e+01
  -1.21738500844e+01
  -1.13213917563e+01
  -1.04834812297e+01
  -9.66281664563e+00
  -8.86241858301e+00
  -8.08560264287e+00
  -7.33592155746e+00
  -6.61707092005e+00
  -5.93275584978e+00
  -5.28652138703e+00
  -4.68155678607e+00
  -4.12049181825e+00
  -3.60520951559e+00
  -3.13670195167e+00
  -2.71499189670e+00
  -2.33913352144e+00
  -2.00729198365e+00
  -1.71688843889e+00
  -1.46478748237e+00
  -1.24750042183e+00
  -1.06138007716e+00
  -9.02789187495e-01
  -7.68232460941e-01
  -6.54449635984e-01
  -5.58472347936e-01
  -4.77650755711e-01
  -4.09657077460e-01
  -3.52472993585e-01
  -3.04366903771e-01
  -2.63865746159e-01
  -2.29724811094e-01
  -2.00897873339e-01
  -1.76509086793e-01
  -1.55827434134e-01
  -1.38244069805e-01
  -1.23252597129e-01
  -1.10432139126e-01
  -9.94329633102e-02
  -8.99643765956e-02
  -8.17845973606e-02
  -7.46923236885e-02
  -6.85197401018e-02
  -6.31267335524e-02
  -5.83961190515e-02
  -5.42297038463e-02
  -5.05450452227e-02
  -4.72727803033e-02
  -4.43544264644e-02
  -4.17405683484e-02
  -3.93893621198e-02
  -3.72652999173e-02
  -3.53381876908e-02
  -3.35822980846e-02
  -3.19756670089e-02
  -3.04995082743e-02
  -2.91377253525e-02
  -2.78765031685e-02
  -2.67039659486e-02
  -2.56098897061e-02
  -2.45854600153e-02
  -2.36230674181e-02
  -2.27161341792e-02
  -2.18589672279e-02
  -2.10466330316e-02
  -2.02748508948e-02
  -1.95399017767e-02
  -1.88385502216e-02
  -1.81679773976e-02
  -1.75257235724e-02
  -1.69096386282e-02
  -1.63178394423e-02
  -1.57486731442e-02
  -1.52006854150e-02
  -1.46725931217e-02
  -1.41632606845e-02
  -1.36716796661e-02
  -1.31969511416e-02
  -1.27382704778e-02
  -1.22949141937e-02
  -1.18662286286e-02
  -1.14516201749e-02
  -1.10505468677e-02
  -1.06625111534e-02
  -1.02870536780e-02
  -9.92374796125e-03
  -9.57219583859e-03
  -9.23202356660e-03
  -8.90287850373e-03
  -8.58442628777e-03
  -8.27634844201e-03
  -7.97834035090e-03
  -7.69010955363e-03
  -7.41137431049e-03
  -7.14186240299e-03
  -6.88131013376e-03
  -6.62946149649e-03
  -6.38606749030e-03
  -6.15088555649e-03
  -5.92367911808e-03
  -5.70421720591e-03
  -5.49227415662e-03
  -5.28762937053e-03
  -5.09006711854e-03
